T262C 3445:535.007   SEGGER J-Link V7.00 Log File
T262C 3445:535.067   DLL Compiled: Apr  8 2021 14:30:05
T262C 3445:535.083   Logging started @ 2024-10-20 00:34
T262C 3445:535.097 - 304.774ms
T262C 3445:535.115 JLINK_SetWarnOutHandler(...)
T262C 3445:535.129 - 0.020ms
T262C 3445:535.145 JLINK_OpenEx(...)
T262C 3445:536.577   Firmware: J-Link V9 compiled May  7 2021 16:26:12
T262C 3445:537.041   Firmware: J-Link V9 compiled May  7 2021 16:26:12
T262C 3445:537.218   Decompressing FW timestamp took 129 us
T262C 3445:543.855   Hardware: V9.50
T262C 3445:543.900   S/N: 69545589
T262C 3445:543.921   OEM: SEGGER
T262C 3445:543.942   Feature(s): JFlash, GDB, RDI, FlashBP, FlashDL
T262C 3445:545.152   TELNET listener socket opened on port 19021
T262C 3445:548.321   Device "CORTEX-M0" selected.
T262C 3445:549.442   WEBSRV Starting webserver
T262C 3445:549.630   WEBSRV Webserver running on local port 19080
T262C 3445:549.658 - 14.520ms returns "O.K."
T262C 3445:549.689 JLINK_GetEmuCaps()
T262C 3445:549.707 - 0.026ms returns 0xB9FF7BBF
T262C 3445:549.725 JLINK_TIF_GetAvailable(...)
T262C 3445:549.952 - 0.240ms
T262C 3445:549.978 JLINK_SetErrorOutHandler(...)
T262C 3445:549.993 - 0.021ms
T262C 3445:550.016 JLINK_ExecCommand("ProjectFile = "D:\document\swm221\ugui\app\JLinkSettings.ini"", ...). 
T262C 3445:550.581   Device "CORTEX-M0" selected.
T262C 3445:550.871 - 0.865ms returns 0x00
T262C 3445:550.907 JLINK_ExecCommand("Device = SWM221xB", ...). 
T262C 3445:551.052   Device "CORTEX-M0" selected.
T262C 3445:551.316 - 0.398ms returns 0x00
T262C 3445:551.723 JLINK_GetHardwareVersion()
T262C 3445:551.753 - 0.037ms returns 95000
T262C 3445:551.775 JLINK_GetDLLVersion()
T262C 3445:551.789 - 0.020ms returns 70000
T262C 3445:551.805 JLINK_GetOEMString(...)
T262C 3445:551.820 JLINK_GetFirmwareString(...)
T262C 3445:551.834 - 0.020ms
T262C 3445:551.864 JLINK_GetDLLVersion()
T262C 3445:551.878 - 0.020ms returns 70000
T262C 3445:551.893 JLINK_GetCompileDateTime()
T262C 3445:551.906 - 0.020ms
T262C 3445:551.924 JLINK_GetFirmwareString(...)
T262C 3445:551.938 - 0.020ms
T262C 3445:551.955 JLINK_GetHardwareVersion()
T262C 3445:551.969 - 0.020ms returns 95000
T262C 3445:551.987 JLINK_GetSN()
T262C 3445:552.001 - 0.020ms returns 69545589
T262C 3445:552.017 JLINK_GetOEMString(...)
T262C 3445:552.039 JLINK_TIF_Select(JLINKARM_TIF_SWD)
T262C 3445:552.814 - 0.791ms returns 0x00
T262C 3445:552.843 JLINK_HasError()
T262C 3445:552.860 JLINK_SetSpeed(5000)
T262C 3445:552.994 - 0.140ms
T262C 3445:553.011 JLINK_GetId()
T262C 3445:553.863   Found SW-DP with ID 0x0BB11477
T262C 3445:557.176   DPIDR: 0x0BB11477
T262C 3445:557.227   Scanning AP map to find all available APs
T262C 3445:558.004   AP[1]: Stopped AP scan as end of AP map has been reached
T262C 3445:558.030   AP[0]: AHB-AP (IDR: 0x04770021)
T262C 3445:558.053   Iterating through AP map to find AHB-AP to use
T262C 3445:559.099   AP[0]: Core found
T262C 3445:559.175   AP[0]: AHB-AP ROM base: 0xE00FF000
T262C 3445:559.692   CPUID register: 0x410CC200. Implementer code: 0x41 (ARM)
T262C 3445:559.717   Found Cortex-M0 r0p0, Little endian.
T262C 3445:660.772   -- Max. mem block: 0x00010790
T262C 3445:661.001   CPU_ReadMem(4 bytes @ 0xE000EDF0)
T262C 3445:661.495   CPU_WriteMem(4 bytes @ 0xE000EDF0)
T262C 3445:661.964   CPU_ReadMem(4 bytes @ 0xE0002000)
T262C 3445:662.362   FPUnit: 4 code (BP) slots and 0 literal slots
T262C 3445:662.385   CPU_ReadMem(4 bytes @ 0xE000EDFC)
T262C 3445:662.779   CPU_WriteMem(4 bytes @ 0xE000EDFC)
T262C 3445:663.174   CPU_ReadMem(4 bytes @ 0xE0001000)
T262C 3445:663.544   CPU_WriteMem(4 bytes @ 0xE0001000)
T262C 3445:663.944   CoreSight components:
T262C 3445:663.969   ROMTbl[0] @ E00FF000
T262C 3445:663.990   CPU_ReadMem(64 bytes @ 0xE00FF000)
T262C 3445:664.908   CPU_ReadMem(32 bytes @ 0xE000EFE0)
T262C 3445:665.593   ROMTbl[0][0]: E000E000, CID: B105E00D, PID: 000BB008 SCS
T262C 3445:665.626   CPU_ReadMem(32 bytes @ 0xE0001FE0)
T262C 3445:666.213   ROMTbl[0][1]: E0001000, CID: B105E00D, PID: 000BB00A DWT
T262C 3445:666.287   CPU_ReadMem(32 bytes @ 0xE0002FE0)
T262C 3445:666.864   ROMTbl[0][2]: E0002000, CID: B105E00D, PID: 000BB00B FPB
T262C 3445:667.162 - 114.159ms returns 0x0BB11477
T262C 3445:667.184 JLINK_GetDLLVersion()
T262C 3445:667.198 - 0.020ms returns 70000
T262C 3445:667.222 JLINK_CORE_GetFound()
T262C 3445:667.236 - 0.020ms returns 0x60000FF
T262C 3445:667.254 JLINK_GetDebugInfo(0x100 = JLINKARM_ROM_TABLE_ADDR_INDEX)
T262C 3445:667.269   Value=0xE00FF000
T262C 3445:667.289 - 0.041ms returns 0
T262C 3445:667.311 JLINK_GetDebugInfo(0x100 = JLINKARM_ROM_TABLE_ADDR_INDEX)
T262C 3445:667.325   Value=0xE00FF000
T262C 3445:667.346 - 0.041ms returns 0
T262C 3445:667.363 JLINK_GetDebugInfo(0x101 = JLINKARM_DEBUG_INFO_ETM_ADDR_INDEX)
T262C 3445:667.377   Value=0x00000000
T262C 3445:667.397 - 0.041ms returns 0
T262C 3445:667.416 JLINK_ReadMemEx(0xE0041FF0, 0x10 Bytes, Flags = 0x02000004)
T262C 3445:667.435   CPU_ReadMem(16 bytes @ 0xE0041FF0)
T262C 3445:667.872   Data:  00 00 00 00 00 00 00 00 00 00 00 00 00 00 00 00
T262C 3445:667.894 - 0.485ms returns 16 (0x10)
T262C 3445:667.912 JLINK_GetDebugInfo(0x102 = JLINKARM_DEBUG_INFO_MTB_ADDR_INDEX)
T262C 3445:667.926   Value=0x00000000
T262C 3445:667.946 - 0.040ms returns 0
T262C 3445:667.963 JLINK_GetDebugInfo(0x103 = JLINKARM_DEBUG_INFO_TPIU_ADDR_INDEX)
T262C 3445:667.977   Value=0x00000000
T262C 3445:667.997 - 0.040ms returns 0
T262C 3445:668.014 JLINK_ReadMemEx(0xE0040FF0, 0x10 Bytes, Flags = 0x02000004)
T262C 3445:668.029   CPU_ReadMem(16 bytes @ 0xE0040FF0)
T262C 3445:668.484   Data:  00 00 00 00 00 00 00 00 00 00 00 00 00 00 00 00
T262C 3445:668.506 - 0.498ms returns 16 (0x10)
T262C 3445:668.524 JLINK_GetDebugInfo(0x104 = JLINKARM_DEBUG_INFO_ITM_ADDR_INDEX)
T262C 3445:668.538   Value=0xE0000000
T262C 3445:668.558 - 0.041ms returns 0
T262C 3445:668.575 JLINK_GetDebugInfo(0x105 = JLINKARM_DEBUG_INFO_DWT_ADDR_INDEX)
T262C 3445:668.589   Value=0xE0001000
T262C 3445:668.609 - 0.041ms returns 0
T262C 3445:668.627 JLINK_GetDebugInfo(0x106 = JLINKARM_DEBUG_INFO_FPB_ADDR_INDEX)
T262C 3445:668.640   Value=0xE0002000
T262C 3445:668.661 - 0.040ms returns 0
T262C 3445:668.678 JLINK_GetDebugInfo(0x107 = JLINKARM_DEBUG_INFO_NVIC_ADDR_INDEX)
T262C 3445:668.692   Value=0xE000E000
T262C 3445:668.712 - 0.041ms returns 0
T262C 3445:668.729 JLINK_GetDebugInfo(0x10C = JLINKARM_DEBUG_INFO_DBG_ADDR_INDEX)
T262C 3445:668.743   Value=0xE000EDF0
T262C 3445:668.763 - 0.040ms returns 0
T262C 3445:668.780 JLINK_GetDebugInfo(0x01 = Unknown)
T262C 3445:668.794   Value=0x00000000
T262C 3445:668.814 - 0.040ms returns 0
T262C 3445:668.832 JLINK_ReadMemU32(0xE000ED00, 0x1 Items)
T262C 3445:668.847   CPU_ReadMem(4 bytes @ 0xE000ED00)
T262C 3445:669.226   Data:  00 C2 0C 41
T262C 3445:669.248   Debug reg: CPUID
T262C 3445:669.268 - 0.442ms returns 1 (0x1)
T262C 3445:669.286 JLINK_GetDebugInfo(0x10F = JLINKARM_DEBUG_INFO_HAS_CORTEX_M_SECURITY_EXT_INDEX)
T262C 3445:669.301   Value=0x00000000
T262C 3445:669.321 - 0.041ms returns 0
T262C 3445:669.339 JLINK_HasError()
T262C 3445:669.357 JLINK_SetResetType(JLINKARM_CM3_RESET_TYPE_NORMAL)
T262C 3445:669.371 - 0.020ms returns JLINKARM_CM3_RESET_TYPE_NORMAL
T262C 3445:669.389 JLINK_Reset()
T262C 3445:669.406   CPU is running
T262C 3445:669.427   CPU_WriteMem(4 bytes @ 0xE000EDF0)
T262C 3445:669.809   CPU is running
T262C 3445:669.830   CPU_WriteMem(4 bytes @ 0xE000EDFC)
T262C 3445:670.237   Reset: Halt core after reset via DEMCR.VC_CORERESET.
T262C 3445:670.703   Reset: Reset device via AIRCR.SYSRESETREQ.
T262C 3445:670.725   CPU is running
T262C 3445:670.745   CPU_WriteMem(4 bytes @ 0xE000ED0C)
T262C 3445:723.967   CPU_ReadMem(4 bytes @ 0xE000EDF0)
T262C 3445:724.702   CPU_ReadMem(4 bytes @ 0xE000EDF0)
T262C 3445:725.477   CPU is running
T262C 3445:725.572   CPU_WriteMem(4 bytes @ 0xE000EDF0)
T262C 3445:726.242   CPU is running
T262C 3445:726.330   CPU_WriteMem(4 bytes @ 0xE000EDFC)
T262C 3445:732.268   CPU_ReadMem(4 bytes @ 0xE000EDF0)
T262C 3445:736.667   CPU_WriteMem(4 bytes @ 0xE0002000)
T262C 3445:737.411   CPU_ReadMem(4 bytes @ 0xE000EDFC)
T262C 3445:738.097   CPU_ReadMem(4 bytes @ 0xE0001000)
T262C 3445:738.822   CPU_WriteMem(4 bytes @ 0xE0001000)
T262C 3445:739.515 - 70.180ms
T262C 3445:739.653 JLINK_HasError()
T262C 3445:739.718 JLINK_ReadReg(R15 (PC))
T262C 3445:739.770 - 0.073ms returns 0x000000C0
T262C 3445:739.820 JLINK_ReadReg(XPSR)
T262C 3445:739.865 - 0.066ms returns 0xC1000000
T262C 3445:739.917 JLINK_Halt()
T262C 3445:739.961 - 0.065ms returns 0x00
T262C 3445:740.009 JLINK_ReadMemU32(0xE000EDF0, 0x1 Items)
T262C 3445:740.063   CPU_ReadMem(4 bytes @ 0xE000EDF0)
T262C 3445:740.722   Data:  03 00 03 00
T262C 3445:740.808   Debug reg: DHCSR
T262C 3445:740.867 - 0.878ms returns 1 (0x1)
T262C 3445:740.929 JLINK_WriteU32_64(0xE000EDF0, 0xA05F0003)
T262C 3445:740.971   Debug reg: DHCSR
T262C 3445:741.526   CPU_WriteMem(4 bytes @ 0xE000EDF0)
T262C 3445:742.240 - 1.377ms returns 0 (0x00000000)
T262C 3445:742.348 JLINK_WriteU32_64(0xE000EDFC, 0x01000000)
T262C 3445:742.391   Debug reg: DEMCR
T262C 3445:742.465   CPU_WriteMem(4 bytes @ 0xE000EDFC)
T262C 3445:743.182 - 0.878ms returns 0 (0x00000000)
T262C 3445:743.490 JLINK_GetHWStatus(...)
T262C 3445:743.883 - 0.437ms returns 0
T262C 3445:744.003 JLINK_GetNumBPUnits(Type = 0xFFFFFF00)
T262C 3445:744.048 - 0.064ms returns 0x04
T262C 3445:744.091 JLINK_GetNumBPUnits(Type = 0xF0)
T262C 3445:744.131 - 0.060ms returns 0x2000
T262C 3445:744.175 JLINK_GetNumWPUnits()
T262C 3445:744.214 - 0.059ms returns 2
T262C 3445:744.278 JLINK_GetSpeed()
T262C 3445:744.319 - 0.060ms returns 4000
T262C 3445:744.373 JLINK_ReadMemU32(0xE000E004, 0x1 Items)
T262C 3445:744.423   CPU_ReadMem(4 bytes @ 0xE000E004)
T262C 3445:745.027   Data:  00 00 00 00
T262C 3445:745.112 - 0.759ms returns 1 (0x1)
T262C 3445:745.185 JLINK_HasError()
T262C 3445:745.231 JLINK_ReadReg(R15 (PC))
T262C 3445:745.277 - 0.066ms returns 0x000000C0
T262C 3445:745.320 JLINK_ReadReg(XPSR)
T262C 3445:745.360 - 0.059ms returns 0xC1000000
T262C 3445:815.866 JLINK_HasError()
T262C 3445:815.911 JLINK_SetResetType(JLINKARM_CM3_RESET_TYPE_NORMAL)
T262C 3445:815.927 - 0.022ms returns JLINKARM_CM3_RESET_TYPE_NORMAL
T262C 3445:815.942 JLINK_Reset()
T262C 3445:815.964   CPU_WriteMem(4 bytes @ 0xE000EDF0)
T262C 3445:816.415   CPU_WriteMem(4 bytes @ 0xE000EDFC)
T262C 3445:816.873   Reset: Halt core after reset via DEMCR.VC_CORERESET.
T262C 3445:817.399   Reset: Reset device via AIRCR.SYSRESETREQ.
T262C 3445:817.422   CPU_WriteMem(4 bytes @ 0xE000ED0C)
T262C 3445:870.562   CPU_ReadMem(4 bytes @ 0xE000EDF0)
T262C 3445:871.309   CPU_ReadMem(4 bytes @ 0xE000EDF0)
T262C 3445:871.990   CPU_WriteMem(4 bytes @ 0xE000EDF0)
T262C 3445:872.706   CPU_WriteMem(4 bytes @ 0xE000EDFC)
T262C 3445:878.953   CPU_ReadMem(4 bytes @ 0xE000EDF0)
T262C 3445:883.227   CPU_WriteMem(4 bytes @ 0xE0002000)
T262C 3445:883.956   CPU_ReadMem(4 bytes @ 0xE000EDFC)
T262C 3445:884.617   CPU_ReadMem(4 bytes @ 0xE0001000)
T262C 3445:885.295   CPU_WriteMem(4 bytes @ 0xE0001000)
T262C 3445:885.946 - 70.046ms
T262C 3445:886.071 JLINK_HasError()
T262C 3445:886.122 JLINK_ReadReg(R15 (PC))
T262C 3445:886.169 - 0.067ms returns 0x000000C0
T262C 3445:886.215 JLINK_ReadReg(XPSR)
T262C 3445:886.255 - 0.061ms returns 0xC1000000
T262C 3445:887.071 JLINK_ReadMemEx(0x000000BE, 0x2 Bytes, Flags = 0x02000000)
T262C 3445:887.134   CPU_ReadMem(2 bytes @ 0x000000BE)
T262C 3445:887.717   Data:  00 00
T262C 3445:887.802 - 0.752ms returns 2 (0x2)
T262C 3445:887.853 JLINK_ReadMemEx(0x000000C0, 0x3C Bytes, Flags = 0x02000000)
T262C 3445:887.904   CPU_ReadMem(60 bytes @ 0x000000C0)
T262C 3445:889.042   Data:  13 48 00 47 FE E7 FE E7 FE E7 FE E7 FE E7 FE E7 ...
T262C 3445:889.152 - 1.320ms returns 60 (0x3C)
T262C 3446:001.484 JLINK_ReadMemEx(0x40003800, 0x1C Bytes, Flags = 0x02000004)
T262C 3446:001.540   CPU_ReadMem(28 bytes @ 0x40003800)
T262C 3446:002.224   Data:  00 00 00 00 00 00 00 00 00 00 00 00 00 00 00 00 ...
T262C 3446:002.248 - 0.770ms returns 28 (0x1C)
T262C 3446:002.267 JLINK_ReadMemEx(0x40003800, 0x4 Bytes, Flags = 0x02000004)
T262C 3446:002.289   CPU_ReadMem(4 bytes @ 0x40003800)
T262C 3446:002.650   Data:  00 00 00 00
T262C 3446:002.672 - 0.412ms returns 4 (0x4)
T262C 3446:002.688 JLINK_ReadMemEx(0x40003804, 0x4 Bytes, Flags = 0x02000004)
T262C 3446:002.703   CPU_ReadMem(4 bytes @ 0x40003804)
T262C 3446:003.069   Data:  00 00 00 00
T262C 3446:003.091 - 0.410ms returns 4 (0x4)
T262C 3446:003.107 JLINK_ReadMemEx(0x40003808, 0x4 Bytes, Flags = 0x02000004)
T262C 3446:003.122   CPU_ReadMem(4 bytes @ 0x40003808)
T262C 3446:003.479   Data:  00 00 00 00
T262C 3446:003.500 - 0.400ms returns 4 (0x4)
T262C 3446:003.516 JLINK_ReadMemEx(0x4000380C, 0x4 Bytes, Flags = 0x02000004)
T262C 3446:003.531   CPU_ReadMem(4 bytes @ 0x4000380C)
T262C 3446:003.901   Data:  00 00 00 00
T262C 3446:003.950 - 0.445ms returns 4 (0x4)
T262C 3446:003.978 JLINK_ReadMemEx(0x40003810, 0x4 Bytes, Flags = 0x02000004)
T262C 3446:004.004   CPU_ReadMem(4 bytes @ 0x40003810)
T262C 3446:004.399   Data:  00 00 00 00
T262C 3446:004.436 - 0.466ms returns 4 (0x4)
T262C 3446:004.456 JLINK_ReadMemEx(0x40003814, 0x4 Bytes, Flags = 0x02000004)
T262C 3446:004.484   CPU_ReadMem(4 bytes @ 0x40003814)
T262C 3446:005.053   Data:  00 00 00 00
T262C 3446:005.083 - 0.633ms returns 4 (0x4)
T262C 3446:005.101 JLINK_ReadMemEx(0x40003818, 0x4 Bytes, Flags = 0x02000004)
T262C 3446:005.118   CPU_ReadMem(4 bytes @ 0x40003818)
T262C 3446:005.519   Data:  00 00 00 00
T262C 3446:005.546 - 0.451ms returns 4 (0x4)
T262C 3446:005.563 JLINK_ReadMemEx(0x4000381C, 0x4 Bytes, Flags = 0x02000004)
T262C 3446:005.580   CPU_ReadMem(4 bytes @ 0x4000381C)
T262C 3446:006.009   Data:  00 00 00 00
T262C 3446:006.034 - 0.477ms returns 4 (0x4)
T262C 3446:006.050 JLINK_ReadMemEx(0x4000381C, 0x4 Bytes, Flags = 0x02000004)
T262C 3446:006.066   CPU_ReadMem(4 bytes @ 0x4000381C)
T262C 3446:006.431   Data:  00 00 00 00
T262C 3446:006.455 - 0.411ms returns 4 (0x4)
T262C 3446:006.471 JLINK_ReadMemEx(0x40003830, 0x4 Bytes, Flags = 0x02000004)
T262C 3446:006.486   CPU_ReadMem(4 bytes @ 0x40003830)
T262C 3446:006.853   Data:  00 00 00 00
T262C 3446:006.877 - 0.413ms returns 4 (0x4)
T262C 3446:006.893 JLINK_ReadMemEx(0x40003830, 0x4 Bytes, Flags = 0x02000004)
T262C 3446:006.909   CPU_ReadMem(4 bytes @ 0x40003830)
T262C 3446:007.284   Data:  00 00 00 00
T262C 3446:007.309 - 0.422ms returns 4 (0x4)
T262C 3446:007.325 JLINK_ReadMemEx(0x40003840, 0x3C Bytes, Flags = 0x02000004)
T262C 3446:007.340   CPU_ReadMem(60 bytes @ 0x40003840)
T262C 3446:008.121   Data:  00 00 00 00 00 00 00 00 00 00 00 00 00 00 00 00 ...
T262C 3446:008.147 - 0.829ms returns 60 (0x3C)
T262C 3446:008.164 JLINK_ReadMemEx(0x40003840, 0x4 Bytes, Flags = 0x02000004)
T262C 3446:008.180   CPU_ReadMem(4 bytes @ 0x40003840)
T262C 3446:008.571   Data:  00 00 00 00
T262C 3446:008.594 - 0.436ms returns 4 (0x4)
T262C 3446:008.610 JLINK_ReadMemEx(0x40003844, 0x4 Bytes, Flags = 0x02000004)
T262C 3446:008.626   CPU_ReadMem(4 bytes @ 0x40003844)
T262C 3446:009.029   Data:  00 00 00 00
T262C 3446:009.057 - 0.453ms returns 4 (0x4)
T262C 3446:009.074 JLINK_ReadMemEx(0x40003848, 0x4 Bytes, Flags = 0x02000004)
T262C 3446:009.091   CPU_ReadMem(4 bytes @ 0x40003848)
T262C 3446:009.505   Data:  00 00 00 00
T262C 3446:009.538 - 0.472ms returns 4 (0x4)
T262C 3446:009.563 JLINK_ReadMemEx(0x4000384C, 0x4 Bytes, Flags = 0x02000004)
T262C 3446:009.586   CPU_ReadMem(4 bytes @ 0x4000384C)
T262C 3446:010.014   Data:  00 00 00 00
T262C 3446:010.040 - 0.484ms returns 4 (0x4)
T262C 3446:010.057 JLINK_ReadMemEx(0x40003850, 0x4 Bytes, Flags = 0x02000004)
T262C 3446:010.073   CPU_ReadMem(4 bytes @ 0x40003850)
T262C 3446:010.454   Data:  00 00 00 00
T262C 3446:010.477 - 0.426ms returns 4 (0x4)
T262C 3446:010.493 JLINK_ReadMemEx(0x40003854, 0x4 Bytes, Flags = 0x02000004)
T262C 3446:010.508   CPU_ReadMem(4 bytes @ 0x40003854)
T262C 3446:010.912   Data:  00 00 00 00
T262C 3446:010.934 - 0.448ms returns 4 (0x4)
T262C 3446:010.950 JLINK_ReadMemEx(0x40003858, 0x4 Bytes, Flags = 0x02000004)
T262C 3446:010.965   CPU_ReadMem(4 bytes @ 0x40003858)
T262C 3446:011.505   Data:  00 00 00 00
T262C 3446:011.527 - 0.584ms returns 4 (0x4)
T262C 3446:011.543 JLINK_ReadMemEx(0x4000385C, 0x4 Bytes, Flags = 0x02000004)
T262C 3446:011.559   CPU_ReadMem(4 bytes @ 0x4000385C)
T262C 3446:012.045   Data:  00 00 00 00
T262C 3446:012.066 - 0.529ms returns 4 (0x4)
T262C 3446:012.081 JLINK_ReadMemEx(0x40003860, 0x4 Bytes, Flags = 0x02000004)
T262C 3446:012.096   CPU_ReadMem(4 bytes @ 0x40003860)
T262C 3446:012.546   Data:  00 00 00 00
T262C 3446:012.567 - 0.493ms returns 4 (0x4)
T262C 3446:012.583 JLINK_ReadMemEx(0x40003864, 0x4 Bytes, Flags = 0x02000004)
T262C 3446:012.598   CPU_ReadMem(4 bytes @ 0x40003864)
T262C 3446:013.065   Data:  00 00 00 00
T262C 3446:013.086 - 0.510ms returns 4 (0x4)
T262C 3446:013.102 JLINK_ReadMemEx(0x40003868, 0x4 Bytes, Flags = 0x02000004)
T262C 3446:013.116   CPU_ReadMem(4 bytes @ 0x40003868)
T262C 3446:013.596   Data:  00 00 00 00
T262C 3446:013.618 - 0.523ms returns 4 (0x4)
T262C 3446:013.636 JLINK_ReadMemEx(0x4000386C, 0x4 Bytes, Flags = 0x02000004)
T262C 3446:013.653   CPU_ReadMem(4 bytes @ 0x4000386C)
T262C 3446:014.116   Data:  00 00 00 00
T262C 3446:014.137 - 0.508ms returns 4 (0x4)
T262C 3446:014.155 JLINK_ReadMemEx(0x40003870, 0x4 Bytes, Flags = 0x02000004)
T262C 3446:014.170   CPU_ReadMem(4 bytes @ 0x40003870)
T262C 3446:014.624   Data:  00 00 00 00
T262C 3446:014.646 - 0.497ms returns 4 (0x4)
T262C 3446:014.664 JLINK_ReadMemEx(0x40003874, 0x4 Bytes, Flags = 0x02000004)
T262C 3446:014.679   CPU_ReadMem(4 bytes @ 0x40003874)
T262C 3446:015.110   Data:  00 00 00 00
T262C 3446:015.132 - 0.474ms returns 4 (0x4)
T262C 3446:015.149 JLINK_ReadMemEx(0x40003878, 0x4 Bytes, Flags = 0x02000004)
T262C 3446:015.164   CPU_ReadMem(4 bytes @ 0x40003878)
T262C 3446:015.545   Data:  00 00 00 00
T262C 3446:015.569 - 0.426ms returns 4 (0x4)
T262C 3446:015.588 JLINK_ReadMemEx(0x4000387C, 0x4 Bytes, Flags = 0x02000004)
T262C 3446:015.604   CPU_ReadMem(4 bytes @ 0x4000387C)
T262C 3446:016.027   Data:  00 00 00 00
T262C 3446:016.049 - 0.467ms returns 4 (0x4)
T262C 3446:016.067 JLINK_ReadMemEx(0x4000387C, 0x4 Bytes, Flags = 0x02000004)
T262C 3446:016.082   CPU_ReadMem(4 bytes @ 0x4000387C)
T262C 3446:016.454   Data:  00 00 00 00
T262C 3446:016.475 - 0.415ms returns 4 (0x4)
T262C 3446:058.592 JLINK_ReadMemEx(0x40001800, 0x2C Bytes, Flags = 0x02000004)
T262C 3446:058.647   CPU_ReadMem(44 bytes @ 0x40001800)
T262C 3446:059.322   Data:  00 00 00 00 00 00 00 00 00 00 00 00 00 00 00 00 ...
T262C 3446:059.345 - 0.760ms returns 44 (0x2C)
T262C 3446:059.362 JLINK_ReadMemEx(0x40001800, 0x4 Bytes, Flags = 0x02000004)
T262C 3446:059.378   CPU_ReadMem(4 bytes @ 0x40001800)
T262C 3446:059.788   Data:  00 00 00 00
T262C 3446:059.809 - 0.454ms returns 4 (0x4)
T262C 3446:059.825 JLINK_ReadMemEx(0x40001804, 0x4 Bytes, Flags = 0x02000004)
T262C 3446:059.840   CPU_ReadMem(4 bytes @ 0x40001804)
T262C 3446:060.216   Data:  00 00 00 00
T262C 3446:060.238 - 0.419ms returns 4 (0x4)
T262C 3446:060.254 JLINK_ReadMemEx(0x40001808, 0x4 Bytes, Flags = 0x02000004)
T262C 3446:060.269   CPU_ReadMem(4 bytes @ 0x40001808)
T262C 3446:060.639   Data:  00 00 00 00
T262C 3446:060.661 - 0.414ms returns 4 (0x4)
T262C 3446:060.676 JLINK_ReadMemEx(0x4000180C, 0x4 Bytes, Flags = 0x02000004)
T262C 3446:060.691   CPU_ReadMem(4 bytes @ 0x4000180C)
T262C 3446:061.053   Data:  00 00 00 00
T262C 3446:061.075 - 0.405ms returns 4 (0x4)
T262C 3446:061.090 JLINK_ReadMemEx(0x40001810, 0x4 Bytes, Flags = 0x02000004)
T262C 3446:061.105   CPU_ReadMem(4 bytes @ 0x40001810)
T262C 3446:061.476   Data:  00 00 00 00
T262C 3446:061.497 - 0.413ms returns 4 (0x4)
T262C 3446:061.513 JLINK_ReadMemEx(0x40001814, 0x4 Bytes, Flags = 0x02000004)
T262C 3446:061.528   CPU_ReadMem(4 bytes @ 0x40001814)
T262C 3446:061.885   Data:  00 00 00 00
T262C 3446:061.907 - 0.400ms returns 4 (0x4)
T262C 3446:061.922 JLINK_ReadMemEx(0x40001818, 0x4 Bytes, Flags = 0x02000004)
T262C 3446:061.937   CPU_ReadMem(4 bytes @ 0x40001818)
T262C 3446:062.308   Data:  00 00 00 00
T262C 3446:062.339 - 0.423ms returns 4 (0x4)
T262C 3446:062.355 JLINK_ReadMemEx(0x4000181C, 0x4 Bytes, Flags = 0x02000004)
T262C 3446:062.370   CPU_ReadMem(4 bytes @ 0x4000181C)
T262C 3446:062.773   Data:  00 00 00 00
T262C 3446:062.794 - 0.446ms returns 4 (0x4)
T262C 3446:062.810 JLINK_ReadMemEx(0x40001820, 0x4 Bytes, Flags = 0x02000004)
T262C 3446:062.825   CPU_ReadMem(4 bytes @ 0x40001820)
T262C 3446:063.193   Data:  00 00 00 00
T262C 3446:063.215 - 0.411ms returns 4 (0x4)
T262C 3446:063.230 JLINK_ReadMemEx(0x40001824, 0x4 Bytes, Flags = 0x02000004)
T262C 3446:063.245   CPU_ReadMem(4 bytes @ 0x40001824)
T262C 3446:063.610   Data:  00 00 00 00
T262C 3446:063.632 - 0.408ms returns 4 (0x4)
T262C 3446:063.647 JLINK_ReadMemEx(0x40001828, 0x4 Bytes, Flags = 0x02000004)
T262C 3446:063.662   CPU_ReadMem(4 bytes @ 0x40001828)
T262C 3446:064.018   Data:  00 00 00 00
T262C 3446:064.039 - 0.399ms returns 4 (0x4)
T262C 3446:064.056 JLINK_ReadMemEx(0x4000182C, 0x4 Bytes, Flags = 0x02000004)
T262C 3446:064.071   CPU_ReadMem(4 bytes @ 0x4000182C)
T262C 3446:064.459   Data:  00 00 00 00
T262C 3446:064.481 - 0.431ms returns 4 (0x4)
T262C 3446:064.496 JLINK_ReadMemEx(0x4000182C, 0x4 Bytes, Flags = 0x02000004)
T262C 3446:064.511   CPU_ReadMem(4 bytes @ 0x4000182C)
T262C 3446:064.886   Data:  00 00 00 00
T262C 3446:064.907 - 0.417ms returns 4 (0x4)
T262C 3446:064.923 JLINK_ReadMemEx(0x40001840, 0x4 Bytes, Flags = 0x02000004)
T262C 3446:064.938   CPU_ReadMem(4 bytes @ 0x40001840)
T262C 3446:065.376   Data:  00 00 00 00
T262C 3446:065.397 - 0.481ms returns 4 (0x4)
T262C 3446:065.413 JLINK_ReadMemEx(0x40001840, 0x4 Bytes, Flags = 0x02000004)
T262C 3446:065.428   CPU_ReadMem(4 bytes @ 0x40001840)
T262C 3446:065.806   Data:  00 00 00 00
T262C 3446:065.828 - 0.421ms returns 4 (0x4)
T262C 3447:651.587 JLINK_HasError()
T262C 3447:651.636 JLINK_ReadReg(R0)
T262C 3447:652.102 - 0.475ms returns 0x00465433
T262C 3447:652.120 JLINK_ReadReg(R1)
T262C 3447:652.135 - 0.021ms returns 0x20001820
T262C 3447:652.149 JLINK_ReadReg(R2)
T262C 3447:652.161 - 0.018ms returns 0x00000000
T262C 3447:652.175 JLINK_ReadReg(R3)
T262C 3447:652.187 - 0.018ms returns 0x00001257
T262C 3447:652.200 JLINK_ReadReg(R4)
T262C 3447:652.213 - 0.018ms returns 0x00001B88
T262C 3447:652.226 JLINK_ReadReg(R5)
T262C 3447:652.238 - 0.018ms returns 0x00000001
T262C 3447:652.252 JLINK_ReadReg(R6)
T262C 3447:652.264 - 0.018ms returns 0x00001B88
T262C 3447:652.277 JLINK_ReadReg(R7)
T262C 3447:652.290 - 0.018ms returns 0x00000000
T262C 3447:652.303 JLINK_ReadReg(R8)
T262C 3447:652.315 - 0.018ms returns 0x00000000
T262C 3447:652.328 JLINK_ReadReg(R9)
T262C 3447:652.341 - 0.018ms returns 0x200005B0
T262C 3447:652.354 JLINK_ReadReg(R10)
T262C 3447:652.366 - 0.018ms returns 0x00000000
T262C 3447:652.380 JLINK_ReadReg(R11)
T262C 3447:652.392 - 0.018ms returns 0x00000000
T262C 3447:652.405 JLINK_ReadReg(R12)
T262C 3447:652.418 - 0.018ms returns 0x00000000
T262C 3447:652.431 JLINK_ReadReg(R13 (SP))
T262C 3447:652.443 - 0.018ms returns 0x20001820
T262C 3447:652.456 JLINK_ReadReg(R14)
T262C 3447:652.469 - 0.018ms returns 0x000006A1
T262C 3447:652.482 JLINK_ReadReg(R15 (PC))
T262C 3447:652.494 - 0.018ms returns 0x000000C0
T262C 3447:652.507 JLINK_ReadReg(XPSR)
T262C 3447:652.520 - 0.018ms returns 0xC1000000
T262C 3447:652.533 JLINK_ReadReg(MSP)
T262C 3447:652.545 - 0.018ms returns 0x20001820
T262C 3447:652.558 JLINK_ReadReg(PSP)
T262C 3447:652.570 - 0.018ms returns 0x20002000
T262C 3447:652.583 JLINK_ReadReg(CFBP)
T262C 3447:652.598 - 0.021ms returns 0x00000000
T262C 3447:652.615 JLINK_ReadMemEx(0x20000004, 0x4 Bytes, Flags = 0x02000000)
T262C 3447:652.632   CPU_ReadMem(4 bytes @ 0x20000004)
T262C 3447:653.081   Data:  00 12 7A 00
T262C 3447:653.102 - 0.494ms returns 4 (0x4)
T0DC4 3447:692.032 JLINK_ReadMemEx(0x000000C0, 0x2 Bytes, Flags = 0x02000000)
T0DC4 3447:692.083   CPU_ReadMem(2 bytes @ 0x000000C0)
T0DC4 3447:692.511   Data:  13 48
T0DC4 3447:692.544 - 0.518ms returns 2 (0x2)
T0DC4 3447:692.562 JLINK_HasError()
T0DC4 3447:692.587 JLINK_SetBPEx(Addr = 0x000006AC, Type = 0xFFFFFFF2)
T0DC4 3447:692.610 - 0.030ms returns 0x00000001
T0DC4 3447:692.626 JLINK_HasError()
T0DC4 3447:692.640 JLINK_HasError()
T0DC4 3447:692.657 JLINK_Go()
T0DC4 3447:692.686   CPU_WriteMem(4 bytes @ 0xE0002000)
T0DC4 3447:693.106   CPU_ReadMem(4 bytes @ 0xE0001000)
T0DC4 3447:693.542   CPU_WriteMem(4 bytes @ 0xE0001000)
T0DC4 3447:693.571   CPU_WriteMem(4 bytes @ 0xE0002008)
T0DC4 3447:693.592   CPU_WriteMem(4 bytes @ 0xE000200C)
T0DC4 3447:693.613   CPU_WriteMem(4 bytes @ 0xE0002010)
T0DC4 3447:693.633   CPU_WriteMem(4 bytes @ 0xE0002014)
T0DC4 3447:695.055   CPU_WriteMem(4 bytes @ 0xE0001004)
T0DC4 3447:696.025 - 3.390ms
T0DC4 3447:796.713 JLINK_HasError()
T0DC4 3447:796.757 JLINK_IsHalted()
T0DC4 3447:799.815 - 3.079ms returns TRUE
T0DC4 3447:799.847 JLINK_HasError()
T0DC4 3447:799.863 JLINK_Halt()
T0DC4 3447:799.877 - 0.020ms returns 0x00
T0DC4 3447:799.892 JLINK_IsHalted()
T0DC4 3447:799.906 - 0.020ms returns TRUE
T0DC4 3447:799.921 JLINK_IsHalted()
T0DC4 3447:799.934 - 0.020ms returns TRUE
T0DC4 3447:799.949 JLINK_IsHalted()
T0DC4 3447:799.963 - 0.020ms returns TRUE
T0DC4 3447:799.978 JLINK_HasError()
T0DC4 3447:799.993 JLINK_ReadReg(R15 (PC))
T0DC4 3447:800.008 - 0.022ms returns 0x000006AC
T0DC4 3447:800.023 JLINK_ReadReg(XPSR)
T0DC4 3447:800.037 - 0.020ms returns 0x61000000
T0DC4 3447:800.055 JLINK_HasError()
T0DC4 3447:800.074 JLINK_ClrBPEx(BPHandle = 0x00000001)
T0DC4 3447:800.089 - 0.022ms returns 0x00
T0DC4 3447:800.108 JLINK_HasError()
T0DC4 3447:800.125 JLINK_HasError()
T0DC4 3447:800.140 JLINK_ReadMemU32(0xE000ED30, 0x1 Items)
T0DC4 3447:800.158   CPU_ReadMem(4 bytes @ 0xE000ED30)
T0DC4 3447:800.537   Data:  02 00 00 00
T0DC4 3447:800.560 - 0.427ms returns 1 (0x1)
T0DC4 3447:800.576 JLINK_ReadMemU32(0xE0001028, 0x1 Items)
T0DC4 3447:800.593   CPU_ReadMem(4 bytes @ 0xE0001028)
T0DC4 3447:800.998   Data:  00 00 00 00
T0DC4 3447:801.044   Debug reg: DWT_FUNC[0]
T0DC4 3447:801.074 - 0.508ms returns 1 (0x1)
T0DC4 3447:801.098 JLINK_ReadMemU32(0xE0001038, 0x1 Items)
T0DC4 3447:801.125   CPU_ReadMem(4 bytes @ 0xE0001038)
T0DC4 3447:801.530   Data:  00 00 00 00
T0DC4 3447:801.565   Debug reg: DWT_FUNC[1]
T0DC4 3447:801.594 - 0.506ms returns 1 (0x1)
T0DC4 3447:801.642 JLINK_HasError()
T0DC4 3447:801.665 JLINK_ReadReg(R0)
T0DC4 3447:801.687 - 0.032ms returns 0x000006AD
T0DC4 3447:801.710 JLINK_ReadReg(R1)
T0DC4 3447:801.730 - 0.030ms returns 0x20001820
T0DC4 3447:801.752 JLINK_ReadReg(R2)
T0DC4 3447:801.772 - 0.030ms returns 0x00000000
T0DC4 3447:801.794 JLINK_ReadReg(R3)
T0DC4 3447:801.815 - 0.031ms returns 0x00001257
T0DC4 3447:801.837 JLINK_ReadReg(R4)
T0DC4 3447:801.859 - 0.032ms returns 0x00001B88
T0DC4 3447:801.881 JLINK_ReadReg(R5)
T0DC4 3447:801.902 - 0.031ms returns 0x00000001
T0DC4 3447:801.924 JLINK_ReadReg(R6)
T0DC4 3447:801.945 - 0.030ms returns 0x00001B88
T0DC4 3447:801.970 JLINK_ReadReg(R7)
T0DC4 3447:801.990 - 0.031ms returns 0x00000000
T0DC4 3447:802.012 JLINK_ReadReg(R8)
T0DC4 3447:802.033 - 0.030ms returns 0x00000000
T0DC4 3447:802.054 JLINK_ReadReg(R9)
T0DC4 3447:802.075 - 0.030ms returns 0x200005B0
T0DC4 3447:802.096 JLINK_ReadReg(R10)
T0DC4 3447:802.117 - 0.031ms returns 0x00000000
T0DC4 3447:802.138 JLINK_ReadReg(R11)
T0DC4 3447:802.159 - 0.030ms returns 0x00000000
T0DC4 3447:802.180 JLINK_ReadReg(R12)
T0DC4 3447:802.201 - 0.030ms returns 0x00000000
T0DC4 3447:802.223 JLINK_ReadReg(R13 (SP))
T0DC4 3447:802.244 - 0.031ms returns 0x20001820
T0DC4 3447:802.265 JLINK_ReadReg(R14)
T0DC4 3447:802.286 - 0.030ms returns 0x000006A1
T0DC4 3447:802.307 JLINK_ReadReg(R15 (PC))
T0DC4 3447:802.328 - 0.031ms returns 0x000006AC
T0DC4 3447:802.350 JLINK_ReadReg(XPSR)
T0DC4 3447:802.370 - 0.031ms returns 0x61000000
T0DC4 3447:802.392 JLINK_ReadReg(MSP)
T0DC4 3447:802.413 - 0.031ms returns 0x20001820
T0DC4 3447:802.435 JLINK_ReadReg(PSP)
T0DC4 3447:802.455 - 0.030ms returns 0x20002000
T0DC4 3447:802.477 JLINK_ReadReg(CFBP)
T0DC4 3447:802.498 - 0.035ms returns 0x00000000
T262C 3447:802.918 JLINK_ReadMemEx(0x00000000, 0x4 Bytes, Flags = 0x02000000)
T262C 3447:802.952   CPU_ReadMem(64 bytes @ 0x00000000)
T262C 3447:803.798    -- Updating DA cache (64 bytes @ 0x00000000)
T262C 3447:803.827    -- Read from DA cache (4 bytes @ 0x00000000)
T262C 3447:803.848   Data:  20 18 00 20
T262C 3447:803.869 - 0.957ms returns 4 (0x4)
T262C 3447:805.661 JLINK_HasError()
T262C 3447:805.960 JLINK_ReadMemEx(0x20000004, 0x4 Bytes, Flags = 0x02000000)
T262C 3447:805.990   CPU_ReadMem(4 bytes @ 0x20000004)
T262C 3447:806.381   Data:  00 12 7A 00
T262C 3447:806.403 - 0.450ms returns 4 (0x4)
T262C 3447:807.690 JLINK_ReadMemEx(0x40003800, 0x1C Bytes, Flags = 0x02000004)
T262C 3447:807.726   CPU_ReadMem(28 bytes @ 0x40003800)
T262C 3447:808.278   Data:  00 00 00 00 00 00 00 00 00 00 00 00 00 00 00 00 ...
T262C 3447:808.301 - 0.618ms returns 28 (0x1C)
T262C 3447:808.318 JLINK_ReadMemEx(0x40003800, 0x4 Bytes, Flags = 0x02000004)
T262C 3447:808.334   CPU_ReadMem(4 bytes @ 0x40003800)
T262C 3447:808.768   Data:  00 00 00 00
T262C 3447:808.791 - 0.479ms returns 4 (0x4)
T262C 3447:808.807 JLINK_ReadMemEx(0x40003804, 0x4 Bytes, Flags = 0x02000004)
T262C 3447:808.823   CPU_ReadMem(4 bytes @ 0x40003804)
T262C 3447:809.192   Data:  00 00 00 00
T262C 3447:809.217 - 0.416ms returns 4 (0x4)
T262C 3447:809.233 JLINK_ReadMemEx(0x40003808, 0x4 Bytes, Flags = 0x02000004)
T262C 3447:809.249   CPU_ReadMem(4 bytes @ 0x40003808)
T262C 3447:809.619   Data:  00 00 00 00
T262C 3447:809.642 - 0.415ms returns 4 (0x4)
T262C 3447:809.658 JLINK_ReadMemEx(0x4000380C, 0x4 Bytes, Flags = 0x02000004)
T262C 3447:809.673   CPU_ReadMem(4 bytes @ 0x4000380C)
T262C 3447:810.036   Data:  00 00 00 00
T262C 3447:810.060 - 0.409ms returns 4 (0x4)
T262C 3447:810.076 JLINK_ReadMemEx(0x40003810, 0x4 Bytes, Flags = 0x02000004)
T262C 3447:810.092   CPU_ReadMem(4 bytes @ 0x40003810)
T262C 3447:810.462   Data:  00 00 00 00
T262C 3447:810.489 - 0.419ms returns 4 (0x4)
T262C 3447:810.505 JLINK_ReadMemEx(0x40003814, 0x4 Bytes, Flags = 0x02000004)
T262C 3447:810.522   CPU_ReadMem(4 bytes @ 0x40003814)
T262C 3447:810.904   Data:  00 00 00 00
T262C 3447:810.929 - 0.431ms returns 4 (0x4)
T262C 3447:810.947 JLINK_ReadMemEx(0x40003818, 0x4 Bytes, Flags = 0x02000004)
T262C 3447:810.964   CPU_ReadMem(4 bytes @ 0x40003818)
T262C 3447:811.354   Data:  00 00 00 00
T262C 3447:811.381 - 0.441ms returns 4 (0x4)
T262C 3447:811.398 JLINK_ReadMemEx(0x4000381C, 0x4 Bytes, Flags = 0x02000004)
T262C 3447:811.414   CPU_ReadMem(4 bytes @ 0x4000381C)
T262C 3447:811.787   Data:  00 00 00 00
T262C 3447:811.811 - 0.419ms returns 4 (0x4)
T262C 3447:811.827 JLINK_ReadMemEx(0x4000381C, 0x4 Bytes, Flags = 0x02000004)
T262C 3447:811.843   CPU_ReadMem(4 bytes @ 0x4000381C)
T262C 3447:812.220   Data:  00 00 00 00
T262C 3447:812.242 - 0.421ms returns 4 (0x4)
T262C 3447:812.258 JLINK_ReadMemEx(0x40003830, 0x4 Bytes, Flags = 0x02000004)
T262C 3447:812.274   CPU_ReadMem(4 bytes @ 0x40003830)
T262C 3447:812.645   Data:  00 00 00 00
T262C 3447:812.668 - 0.419ms returns 4 (0x4)
T262C 3447:812.689 JLINK_ReadMemEx(0x40003830, 0x4 Bytes, Flags = 0x02000004)
T262C 3447:812.705   CPU_ReadMem(4 bytes @ 0x40003830)
T262C 3447:813.087   Data:  00 00 00 00
T262C 3447:813.115 - 0.433ms returns 4 (0x4)
T262C 3447:813.133 JLINK_ReadMemEx(0x40003840, 0x3C Bytes, Flags = 0x02000004)
T262C 3447:813.150   CPU_ReadMem(60 bytes @ 0x40003840)
T262C 3447:813.946   Data:  00 00 00 00 00 00 00 00 00 00 00 00 00 00 00 00 ...
T262C 3447:813.974 - 0.848ms returns 60 (0x3C)
T262C 3447:813.992 JLINK_ReadMemEx(0x40003840, 0x4 Bytes, Flags = 0x02000004)
T262C 3447:814.008   CPU_ReadMem(4 bytes @ 0x40003840)
T262C 3447:814.378   Data:  00 00 00 00
T262C 3447:814.403 - 0.418ms returns 4 (0x4)
T262C 3447:814.419 JLINK_ReadMemEx(0x40003844, 0x4 Bytes, Flags = 0x02000004)
T262C 3447:814.436   CPU_ReadMem(4 bytes @ 0x40003844)
T262C 3447:814.823   Data:  00 00 00 00
T262C 3447:814.846 - 0.433ms returns 4 (0x4)
T262C 3447:814.862 JLINK_ReadMemEx(0x40003848, 0x4 Bytes, Flags = 0x02000004)
T262C 3447:814.927   CPU_ReadMem(4 bytes @ 0x40003848)
T262C 3447:815.371   Data:  00 00 00 00
T262C 3447:815.407 - 0.552ms returns 4 (0x4)
T262C 3447:815.425 JLINK_ReadMemEx(0x4000384C, 0x4 Bytes, Flags = 0x02000004)
T262C 3447:815.442   CPU_ReadMem(4 bytes @ 0x4000384C)
T262C 3447:815.822   Data:  00 00 00 00
T262C 3447:815.843 - 0.425ms returns 4 (0x4)
T262C 3447:815.859 JLINK_ReadMemEx(0x40003850, 0x4 Bytes, Flags = 0x02000004)
T262C 3447:815.875   CPU_ReadMem(4 bytes @ 0x40003850)
T262C 3447:816.314   Data:  00 00 00 00
T262C 3447:816.336 - 0.483ms returns 4 (0x4)
T262C 3447:816.352 JLINK_ReadMemEx(0x40003854, 0x4 Bytes, Flags = 0x02000004)
T262C 3447:816.368   CPU_ReadMem(4 bytes @ 0x40003854)
T262C 3447:816.766   Data:  00 00 00 00
T262C 3447:816.790 - 0.444ms returns 4 (0x4)
T262C 3447:816.806 JLINK_ReadMemEx(0x40003858, 0x4 Bytes, Flags = 0x02000004)
T262C 3447:816.822   CPU_ReadMem(4 bytes @ 0x40003858)
T262C 3447:817.257   Data:  00 00 00 00
T262C 3447:817.279 - 0.479ms returns 4 (0x4)
T262C 3447:817.295 JLINK_ReadMemEx(0x4000385C, 0x4 Bytes, Flags = 0x02000004)
T262C 3447:817.310   CPU_ReadMem(4 bytes @ 0x4000385C)
T262C 3447:817.748   Data:  00 00 00 00
T262C 3447:817.770 - 0.482ms returns 4 (0x4)
T262C 3447:817.786 JLINK_ReadMemEx(0x40003860, 0x4 Bytes, Flags = 0x02000004)
T262C 3447:817.801   CPU_ReadMem(4 bytes @ 0x40003860)
T262C 3447:818.220   Data:  00 00 00 00
T262C 3447:818.241 - 0.462ms returns 4 (0x4)
T262C 3447:818.257 JLINK_ReadMemEx(0x40003864, 0x4 Bytes, Flags = 0x02000004)
T262C 3447:818.272   CPU_ReadMem(4 bytes @ 0x40003864)
T262C 3447:818.686   Data:  00 00 00 00
T262C 3447:818.735 - 0.485ms returns 4 (0x4)
T262C 3447:818.755 JLINK_ReadMemEx(0x40003868, 0x4 Bytes, Flags = 0x02000004)
T262C 3447:818.777   CPU_ReadMem(4 bytes @ 0x40003868)
T262C 3447:819.132   Data:  00 00 00 00
T262C 3447:819.156 - 0.407ms returns 4 (0x4)
T262C 3447:819.172 JLINK_ReadMemEx(0x4000386C, 0x4 Bytes, Flags = 0x02000004)
T262C 3447:819.188   CPU_ReadMem(4 bytes @ 0x4000386C)
T262C 3447:819.579   Data:  00 00 00 00
T262C 3447:819.609 - 0.446ms returns 4 (0x4)
T262C 3447:819.629 JLINK_ReadMemEx(0x40003870, 0x4 Bytes, Flags = 0x02000004)
T262C 3447:819.650   CPU_ReadMem(4 bytes @ 0x40003870)
T262C 3447:820.024   Data:  00 00 00 00
T262C 3447:820.070 - 0.451ms returns 4 (0x4)
T262C 3447:820.095 JLINK_ReadMemEx(0x40003874, 0x4 Bytes, Flags = 0x02000004)
T262C 3447:820.120   CPU_ReadMem(4 bytes @ 0x40003874)
T262C 3447:820.544   Data:  00 00 00 00
T262C 3447:820.573 - 0.485ms returns 4 (0x4)
T262C 3447:820.592 JLINK_ReadMemEx(0x40003878, 0x4 Bytes, Flags = 0x02000004)
T262C 3447:820.610   CPU_ReadMem(4 bytes @ 0x40003878)
T262C 3447:820.996   Data:  00 00 00 00
T262C 3447:821.019 - 0.434ms returns 4 (0x4)
T262C 3447:821.037 JLINK_ReadMemEx(0x4000387C, 0x4 Bytes, Flags = 0x02000004)
T262C 3447:821.054   CPU_ReadMem(4 bytes @ 0x4000387C)
T262C 3447:821.415   Data:  00 00 00 00
T262C 3447:821.442 - 0.412ms returns 4 (0x4)
T262C 3447:821.461 JLINK_ReadMemEx(0x4000387C, 0x4 Bytes, Flags = 0x02000004)
T262C 3447:821.480   CPU_ReadMem(4 bytes @ 0x4000387C)
T262C 3447:821.887   Data:  00 00 00 00
T262C 3447:821.911 - 0.456ms returns 4 (0x4)
T262C 3447:822.354 JLINK_ReadMemEx(0x40001800, 0x2C Bytes, Flags = 0x02000004)
T262C 3447:822.380   CPU_ReadMem(44 bytes @ 0x40001800)
T262C 3447:823.021   Data:  00 00 00 00 00 00 00 00 00 00 00 00 00 00 00 00 ...
T262C 3447:823.044 - 0.696ms returns 44 (0x2C)
T262C 3447:823.061 JLINK_ReadMemEx(0x40001800, 0x4 Bytes, Flags = 0x02000004)
T262C 3447:823.076   CPU_ReadMem(4 bytes @ 0x40001800)
T262C 3447:823.417   Data:  00 00 00 00
T262C 3447:823.439 - 0.385ms returns 4 (0x4)
T262C 3447:823.455 JLINK_ReadMemEx(0x40001804, 0x4 Bytes, Flags = 0x02000004)
T262C 3447:823.471   CPU_ReadMem(4 bytes @ 0x40001804)
T262C 3447:823.812   Data:  00 00 00 00
T262C 3447:823.834 - 0.385ms returns 4 (0x4)
T262C 3447:823.850 JLINK_ReadMemEx(0x40001808, 0x4 Bytes, Flags = 0x02000004)
T262C 3447:823.868   CPU_ReadMem(4 bytes @ 0x40001808)
T262C 3447:824.222   Data:  00 00 00 00
T262C 3447:824.245 - 0.401ms returns 4 (0x4)
T262C 3447:824.261 JLINK_ReadMemEx(0x4000180C, 0x4 Bytes, Flags = 0x02000004)
T262C 3447:824.276   CPU_ReadMem(4 bytes @ 0x4000180C)
T262C 3447:824.653   Data:  00 00 00 00
T262C 3447:824.675 - 0.420ms returns 4 (0x4)
T262C 3447:824.690 JLINK_ReadMemEx(0x40001810, 0x4 Bytes, Flags = 0x02000004)
T262C 3447:824.705   CPU_ReadMem(4 bytes @ 0x40001810)
T262C 3447:825.031   Data:  00 00 00 00
T262C 3447:825.054 - 0.370ms returns 4 (0x4)
T262C 3447:825.070 JLINK_ReadMemEx(0x40001814, 0x4 Bytes, Flags = 0x02000004)
T262C 3447:825.085   CPU_ReadMem(4 bytes @ 0x40001814)
T262C 3447:825.468   Data:  00 00 00 00
T262C 3447:825.490 - 0.427ms returns 4 (0x4)
T262C 3447:825.508 JLINK_ReadMemEx(0x40001818, 0x4 Bytes, Flags = 0x02000004)
T262C 3447:825.523   CPU_ReadMem(4 bytes @ 0x40001818)
T262C 3447:825.907   Data:  00 00 00 00
T262C 3447:825.938 - 0.437ms returns 4 (0x4)
T262C 3447:825.957 JLINK_ReadMemEx(0x4000181C, 0x4 Bytes, Flags = 0x02000004)
T262C 3447:825.976   CPU_ReadMem(4 bytes @ 0x4000181C)
T262C 3447:826.345   Data:  00 00 00 00
T262C 3447:826.367 - 0.417ms returns 4 (0x4)
T262C 3447:826.384 JLINK_ReadMemEx(0x40001820, 0x4 Bytes, Flags = 0x02000004)
T262C 3447:826.399   CPU_ReadMem(4 bytes @ 0x40001820)
T262C 3447:826.752   Data:  00 00 00 00
T262C 3447:826.774 - 0.396ms returns 4 (0x4)
T262C 3447:826.789 JLINK_ReadMemEx(0x40001824, 0x4 Bytes, Flags = 0x02000004)
T262C 3447:826.805   CPU_ReadMem(4 bytes @ 0x40001824)
T262C 3447:827.154   Data:  00 00 00 00
T262C 3447:827.176 - 0.394ms returns 4 (0x4)
T262C 3447:827.192 JLINK_ReadMemEx(0x40001828, 0x4 Bytes, Flags = 0x02000004)
T262C 3447:827.207   CPU_ReadMem(4 bytes @ 0x40001828)
T262C 3447:827.576   Data:  00 00 00 00
T262C 3447:827.606 - 0.421ms returns 4 (0x4)
T262C 3447:827.628 JLINK_ReadMemEx(0x4000182C, 0x4 Bytes, Flags = 0x02000004)
T262C 3447:827.646   CPU_ReadMem(4 bytes @ 0x4000182C)
T262C 3447:827.997   Data:  00 00 00 00
T262C 3447:828.023 - 0.403ms returns 4 (0x4)
T262C 3447:828.042 JLINK_ReadMemEx(0x4000182C, 0x4 Bytes, Flags = 0x02000004)
T262C 3447:828.059   CPU_ReadMem(4 bytes @ 0x4000182C)
T262C 3447:828.450   Data:  00 00 00 00
T262C 3447:828.483 - 0.448ms returns 4 (0x4)
T262C 3447:828.501 JLINK_ReadMemEx(0x40001840, 0x4 Bytes, Flags = 0x02000004)
T262C 3447:828.519   CPU_ReadMem(4 bytes @ 0x40001840)
T262C 3447:828.889   Data:  00 00 00 00
T262C 3447:828.922 - 0.430ms returns 4 (0x4)
T262C 3447:828.943 JLINK_ReadMemEx(0x40001840, 0x4 Bytes, Flags = 0x02000004)
T262C 3447:828.965   CPU_ReadMem(4 bytes @ 0x40001840)
T262C 3447:829.339   Data:  00 00 00 00
T262C 3447:829.368 - 0.432ms returns 4 (0x4)
T262C 3447:833.054 JLINK_ReadMemEx(0x000005AC, 0x3C Bytes, Flags = 0x02000000)
T262C 3447:833.114   CPU_ReadMem(128 bytes @ 0x00000580)
T262C 3447:834.386    -- Updating DA cache (128 bytes @ 0x00000580)
T262C 3447:834.423    -- Read from DA cache (60 bytes @ 0x000005AC)
T262C 3447:834.445   Data:  18 46 10 43 1B D0 00 98 40 21 0A 1A 18 46 05 99 ...
T262C 3447:834.465 - 1.417ms returns 60 (0x3C)
T262C 3447:834.490 JLINK_ReadMemEx(0x000005E8, 0x3C Bytes, Flags = 0x02000000)
T262C 3447:834.508   CPU_ReadMem(64 bytes @ 0x00000600)
T262C 3447:835.286    -- Updating DA cache (64 bytes @ 0x00000600)
T262C 3447:835.330    -- Read from DA cache (60 bytes @ 0x000005E8)
T262C 3447:835.363   Data:  37 43 00 99 0E 98 63 05 40 1A 79 05 E4 0A 00 22 ...
T262C 3447:835.394 - 0.914ms returns 60 (0x3C)
T262C 3447:835.427 JLINK_ReadMemEx(0x00000624, 0x3C Bytes, Flags = 0x02000000)
T262C 3447:835.455   CPU_ReadMem(64 bytes @ 0x00000640)
T262C 3447:836.244    -- Updating DA cache (64 bytes @ 0x00000640)
T262C 3447:836.283    -- Read from DA cache (60 bytes @ 0x00000624)
T262C 3447:836.316   Data:  1B 05 19 43 0A 4B 10 B5 52 0D 9A 42 02 DA 00 20 ...
T262C 3447:836.348 - 0.933ms returns 60 (0x3C)
T262C 3447:836.381 JLINK_ReadMemEx(0x00000660, 0x3C Bytes, Flags = 0x02000000)
T262C 3447:836.415   CPU_ReadMem(64 bytes @ 0x00000680)
T262C 3447:837.255    -- Updating DA cache (64 bytes @ 0x00000680)
T262C 3447:837.304    -- Read from DA cache (60 bytes @ 0x00000660)
T262C 3447:837.329   Data:  04 DB 01 24 E4 07 40 42 8C 41 21 46 00 2B 04 DB ...
T262C 3447:837.351 - 0.976ms returns 60 (0x3C)
T262C 3447:837.385 JLINK_ReadMemEx(0x0000069C, 0x3C Bytes, Flags = 0x02000000)
T262C 3447:837.417   CPU_ReadMem(64 bytes @ 0x000006C0)
T262C 3447:838.220    -- Updating DA cache (64 bytes @ 0x000006C0)
T262C 3447:838.243    -- Read from DA cache (60 bytes @ 0x0000069C)
T262C 3447:838.264   Data:  FF F7 3E FD 68 1B 00 00 88 1B 00 00 70 47 C0 46 ...
T262C 3447:838.284 - 0.905ms returns 60 (0x3C)
T0DC4 3448:613.173 JLINK_ReadMemEx(0x000006AC, 0x2 Bytes, Flags = 0x02000000)
T0DC4 3448:613.223    -- Read from DA cache (2 bytes @ 0x000006AC)
T0DC4 3448:613.242   Data:  F0 B5
T0DC4 3448:613.261 - 0.094ms returns 2 (0x2)
T0DC4 3448:613.276 JLINK_HasError()
T0DC4 3448:613.290 JLINK_HasError()
T0DC4 3448:613.304 JLINK_Go()
T0DC4 3448:613.838   CPU_ReadMem(4 bytes @ 0xE0001000)
T0DC4 3448:614.348   CPU_WriteMem(4 bytes @ 0xE0001000)
T0DC4 3448:614.377   CPU_WriteMem(4 bytes @ 0xE0002008)
T0DC4 3448:615.681 - 2.395ms
T0DC4 3448:715.813 JLINK_HasError()
T0DC4 3448:715.891 JLINK_IsHalted()
T0DC4 3448:716.509 - 0.656ms returns FALSE
T0DC4 3448:816.608 JLINK_HasError()
T0DC4 3448:816.655 JLINK_IsHalted()
T0DC4 3448:817.086 - 0.445ms returns FALSE
T0DC4 3448:917.171 JLINK_HasError()
T0DC4 3448:917.235 JLINK_IsHalted()
T0DC4 3448:917.745 - 0.533ms returns FALSE
T0DC4 3449:017.913 JLINK_HasError()
T0DC4 3449:017.971 JLINK_IsHalted()
T0DC4 3449:018.555 - 0.630ms returns FALSE
T0DC4 3449:118.695 JLINK_HasError()
T0DC4 3449:118.819 JLINK_IsHalted()
T0DC4 3449:119.446 - 0.675ms returns FALSE
T0DC4 3449:219.624 JLINK_HasError()
T0DC4 3449:219.707 JLINK_HasError()
T262C 3449:219.898 JLINK_ReadMemEx(0x20000004, 0x4 Bytes, Flags = 0x02000000)
T262C 3449:219.961   CPU_ReadMem(4 bytes @ 0x20000004)
T262C 3449:220.507   Data:  00 12 7A 00
T262C 3449:220.568 - 0.685ms returns 4 (0x4)
T262C 3449:221.676 JLINK_ReadMemEx(0x40003800, 0x1C Bytes, Flags = 0x02000004)
T262C 3449:221.727   CPU_ReadMem(28 bytes @ 0x40003800)
T262C 3449:222.437   Data:  00 00 00 00 00 00 00 00 00 00 00 00 00 00 00 00 ...
T262C 3449:222.489 - 0.825ms returns 28 (0x1C)
T262C 3449:222.520 JLINK_ReadMemEx(0x40003800, 0x4 Bytes, Flags = 0x02000004)
T262C 3449:222.550   CPU_ReadMem(4 bytes @ 0x40003800)
T262C 3449:223.046   Data:  00 00 00 00
T262C 3449:223.101 - 0.596ms returns 4 (0x4)
T262C 3449:223.142 JLINK_ReadMemEx(0x40003804, 0x4 Bytes, Flags = 0x02000004)
T262C 3449:223.184   CPU_ReadMem(4 bytes @ 0x40003804)
T262C 3449:223.709   Data:  00 00 00 00
T262C 3449:223.759 - 0.628ms returns 4 (0x4)
T262C 3449:223.788 JLINK_ReadMemEx(0x40003808, 0x4 Bytes, Flags = 0x02000004)
T262C 3449:223.817   CPU_ReadMem(4 bytes @ 0x40003808)
T262C 3449:224.278   Data:  00 00 00 00
T262C 3449:224.328 - 0.551ms returns 4 (0x4)
T262C 3449:224.358 JLINK_ReadMemEx(0x4000380C, 0x4 Bytes, Flags = 0x02000004)
T262C 3449:224.386   CPU_ReadMem(4 bytes @ 0x4000380C)
T262C 3449:224.989   Data:  00 00 00 00
T262C 3449:225.036 - 0.690ms returns 4 (0x4)
T262C 3449:225.065 JLINK_ReadMemEx(0x40003810, 0x4 Bytes, Flags = 0x02000004)
T262C 3449:225.094   CPU_ReadMem(4 bytes @ 0x40003810)
T262C 3449:225.669   Data:  00 00 00 00
T262C 3449:225.711 - 0.653ms returns 4 (0x4)
T262C 3449:225.731 JLINK_ReadMemEx(0x40003814, 0x4 Bytes, Flags = 0x02000004)
T262C 3449:225.750   CPU_ReadMem(4 bytes @ 0x40003814)
T262C 3449:226.289   Data:  00 00 00 00
T262C 3449:226.322 - 0.598ms returns 4 (0x4)
T262C 3449:226.341 JLINK_ReadMemEx(0x40003818, 0x4 Bytes, Flags = 0x02000004)
T262C 3449:226.360   CPU_ReadMem(4 bytes @ 0x40003818)
T262C 3449:226.855   Data:  00 00 00 00
T262C 3449:226.887 - 0.554ms returns 4 (0x4)
T262C 3449:226.908 JLINK_ReadMemEx(0x4000381C, 0x4 Bytes, Flags = 0x02000004)
T262C 3449:226.927   CPU_ReadMem(4 bytes @ 0x4000381C)
T262C 3449:227.436   Data:  00 00 00 00
T262C 3449:227.468 - 0.568ms returns 4 (0x4)
T262C 3449:227.488 JLINK_ReadMemEx(0x4000381C, 0x4 Bytes, Flags = 0x02000004)
T262C 3449:227.507   CPU_ReadMem(4 bytes @ 0x4000381C)
T262C 3449:228.018   Data:  00 00 00 00
T262C 3449:228.050 - 0.570ms returns 4 (0x4)
T262C 3449:228.070 JLINK_ReadMemEx(0x40003830, 0x4 Bytes, Flags = 0x02000004)
T262C 3449:228.089   CPU_ReadMem(4 bytes @ 0x40003830)
T262C 3449:228.629   Data:  00 00 00 00
T262C 3449:228.661 - 0.598ms returns 4 (0x4)
T262C 3449:228.681 JLINK_ReadMemEx(0x40003830, 0x4 Bytes, Flags = 0x02000004)
T262C 3449:228.700   CPU_ReadMem(4 bytes @ 0x40003830)
T262C 3449:229.211   Data:  00 00 00 00
T262C 3449:229.246 - 0.573ms returns 4 (0x4)
T262C 3449:229.267 JLINK_ReadMemEx(0x40003840, 0x3C Bytes, Flags = 0x02000004)
T262C 3449:229.287   CPU_ReadMem(60 bytes @ 0x40003840)
T262C 3449:230.176   Data:  00 00 00 00 00 00 00 00 00 00 00 00 00 00 00 00 ...
T262C 3449:230.209 - 0.950ms returns 60 (0x3C)
T262C 3449:230.230 JLINK_ReadMemEx(0x40003840, 0x4 Bytes, Flags = 0x02000004)
T262C 3449:230.251   CPU_ReadMem(4 bytes @ 0x40003840)
T262C 3449:230.705   Data:  00 00 00 00
T262C 3449:230.739 - 0.517ms returns 4 (0x4)
T262C 3449:230.760 JLINK_ReadMemEx(0x40003844, 0x4 Bytes, Flags = 0x02000004)
T262C 3449:230.781   CPU_ReadMem(4 bytes @ 0x40003844)
T262C 3449:231.257   Data:  00 00 00 00
T262C 3449:231.304 - 0.552ms returns 4 (0x4)
T262C 3449:231.326 JLINK_ReadMemEx(0x40003848, 0x4 Bytes, Flags = 0x02000004)
T262C 3449:231.347   CPU_ReadMem(4 bytes @ 0x40003848)
T262C 3449:231.890   Data:  00 00 00 00
T262C 3449:231.924 - 0.606ms returns 4 (0x4)
T262C 3449:231.948 JLINK_ReadMemEx(0x4000384C, 0x4 Bytes, Flags = 0x02000004)
T262C 3449:231.969   CPU_ReadMem(4 bytes @ 0x4000384C)
T262C 3449:232.429   Data:  00 00 00 00
T262C 3449:232.464 - 0.523ms returns 4 (0x4)
T262C 3449:232.484 JLINK_ReadMemEx(0x40003850, 0x4 Bytes, Flags = 0x02000004)
T262C 3449:232.502   CPU_ReadMem(4 bytes @ 0x40003850)
T262C 3449:232.911   Data:  00 00 00 00
T262C 3449:232.937 - 0.459ms returns 4 (0x4)
T262C 3449:232.956 JLINK_ReadMemEx(0x40003854, 0x4 Bytes, Flags = 0x02000004)
T262C 3449:232.973   CPU_ReadMem(4 bytes @ 0x40003854)
T262C 3449:233.488   Data:  00 00 00 00
T262C 3449:233.568 - 0.632ms returns 4 (0x4)
T262C 3449:233.623 JLINK_ReadMemEx(0x40003858, 0x4 Bytes, Flags = 0x02000004)
T262C 3449:233.673   CPU_ReadMem(4 bytes @ 0x40003858)
T262C 3449:234.248   Data:  00 00 00 00
T262C 3449:234.285 - 0.670ms returns 4 (0x4)
T262C 3449:234.310 JLINK_ReadMemEx(0x4000385C, 0x4 Bytes, Flags = 0x02000004)
T262C 3449:234.332   CPU_ReadMem(4 bytes @ 0x4000385C)
T262C 3449:234.907   Data:  00 00 00 00
T262C 3449:234.943 - 0.641ms returns 4 (0x4)
T262C 3449:234.968 JLINK_ReadMemEx(0x40003860, 0x4 Bytes, Flags = 0x02000004)
T262C 3449:234.990   CPU_ReadMem(4 bytes @ 0x40003860)
T262C 3449:235.463   Data:  00 00 00 00
T262C 3449:235.517 - 0.561ms returns 4 (0x4)
T262C 3449:235.551 JLINK_ReadMemEx(0x40003864, 0x4 Bytes, Flags = 0x02000004)
T262C 3449:235.576   CPU_ReadMem(4 bytes @ 0x40003864)
T262C 3449:236.027   Data:  00 00 00 00
T262C 3449:236.072 - 0.530ms returns 4 (0x4)
T262C 3449:236.100 JLINK_ReadMemEx(0x40003868, 0x4 Bytes, Flags = 0x02000004)
T262C 3449:236.127   CPU_ReadMem(4 bytes @ 0x40003868)
T262C 3449:236.533   Data:  00 00 00 00
T262C 3449:236.569 - 0.479ms returns 4 (0x4)
T262C 3449:236.597 JLINK_ReadMemEx(0x4000386C, 0x4 Bytes, Flags = 0x02000004)
T262C 3449:236.620   CPU_ReadMem(4 bytes @ 0x4000386C)
T262C 3449:237.098   Data:  00 00 00 00
T262C 3449:237.132 - 0.542ms returns 4 (0x4)
T262C 3449:237.153 JLINK_ReadMemEx(0x40003870, 0x4 Bytes, Flags = 0x02000004)
T262C 3449:237.171   CPU_ReadMem(4 bytes @ 0x40003870)
T262C 3449:237.555   Data:  00 00 00 00
T262C 3449:237.585 - 0.439ms returns 4 (0x4)
T262C 3449:237.605 JLINK_ReadMemEx(0x40003874, 0x4 Bytes, Flags = 0x02000004)
T262C 3449:237.623   CPU_ReadMem(4 bytes @ 0x40003874)
T262C 3449:238.039   Data:  00 00 00 00
T262C 3449:238.071 - 0.475ms returns 4 (0x4)
T262C 3449:238.094 JLINK_ReadMemEx(0x40003878, 0x4 Bytes, Flags = 0x02000004)
T262C 3449:238.111   CPU_ReadMem(4 bytes @ 0x40003878)
T262C 3449:238.574   Data:  00 00 00 00
T262C 3449:238.603 - 0.516ms returns 4 (0x4)
T262C 3449:238.625 JLINK_ReadMemEx(0x4000387C, 0x4 Bytes, Flags = 0x02000004)
T262C 3449:238.647   CPU_ReadMem(4 bytes @ 0x4000387C)
T262C 3449:239.032   Data:  00 00 00 00
T262C 3449:239.058 - 0.440ms returns 4 (0x4)
T262C 3449:239.077 JLINK_ReadMemEx(0x4000387C, 0x4 Bytes, Flags = 0x02000004)
T262C 3449:239.094   CPU_ReadMem(4 bytes @ 0x4000387C)
T262C 3449:239.532   Data:  00 00 00 00
T262C 3449:239.612 - 0.554ms returns 4 (0x4)
T262C 3449:240.131 JLINK_ReadMemEx(0x40001800, 0x2C Bytes, Flags = 0x02000004)
